
T1A70 000:456 SEGGER J-Link V4.96d Log File (0000ms, 0424ms total)
T1A70 000:456 DLL Compiled: Jan 29 2015 11:45:37 (0000ms, 0424ms total)
T1A70 000:456 Logging started @ 2022-08-29 10:03 (0000ms, 0424ms total)
T1A70 000:456 JLINK_SetWarnOutHandler(...) (0000ms, 0424ms total)
T1A70 000:456 JLINK_OpenEx(...)
Firmware: J-Link V9 compiled May  7 2021 16:26:12
Hardware: V9.60
S/N: 59610366
Feature(s): RDI, GDB, FlashDL, FlashBP, JFlash  returns O.K. (0267ms, 0691ms total)
T1A70 000:723 JLINK_SetErrorOutHandler(...) (0000ms, 0691ms total)
T1A70 000:723 JLINK_ExecCommand("ProjectFile = "E:\Git_repository\ns_project\Nations.N32G430_Library.1.0.0\projects\n32g430_EVAL\examples\ADC\_ADC_SingleRead\MDK-ARM\JLinkSettings.ini"", ...)Device "UNSPECIFIED" selected.  returns 0x00 (0002ms, 0693ms total)
T1A70 000:726 JLINK_ExecCommand("Device = N32G430C8L7", ...)Device "UNSPECIFIED" selected.  returns 0x00 (0004ms, 0697ms total)
T1A70 000:730 JLINK_ExecCommand("DisableConnectionTimeout", ...)  returns 0x01 (0000ms, 0697ms total)
T1A70 000:730 JLINK_GetHardwareVersion()  returns 0x17700 (0000ms, 0697ms total)
T1A70 000:730 JLINK_GetDLLVersion()  returns 49604 (0000ms, 0697ms total)
T1A70 000:730 JLINK_GetFirmwareString(...) (0000ms, 0697ms total)
T1A70 000:739 JLINK_GetDLLVersion()  returns 49604 (0000ms, 0697ms total)
T1A70 000:739 JLINK_GetCompileDateTime() (0000ms, 0697ms total)
T1A70 000:742 JLINK_GetFirmwareString(...) (0000ms, 0697ms total)
T1A70 000:742 JLINK_GetHardwareVersion()  returns 0x17700 (0000ms, 0697ms total)
T1A70 000:746 JLINK_TIF_Select(JLINKARM_TIF_SWD)  returns 0x00 (0001ms, 0698ms total)
T1A70 000:747 JLINK_SetSpeed(5000) (0001ms, 0699ms total)
T1A70 000:748 JLINK_GetId() >0x108 TIF>Found SWD-DP with ID 0x2BA01477 >0x0D TIF> >0x21 TIF> >0x0D TIF> >0x28 TIF> >0x0D TIF> >0x28 TIF> >0x0D TIF> >0x21 TIF> >0x0D TIF> >0x28 TIF> >0x0D TIF> >0x21 TIF> >0x0D TIF> >0x21 TIF> >0x0D TIF> >0x21 TIF> >0x0D TIF> >0x21 TIF> >0x0D TIF> >0x28 TIF> >0x0D TIF> >0x28 TIF> >0x0D TIF> >0x21 TIF> >0x0D TIF> >0x28 TIF> >0x0D TIF> >0x28 TIF> >0x0D TIF> >0x28 TIF> >0x0D TIF> >0x21 TIF> >0x0D TIF> >0x21 TIF> >0x0D TIF> >0x28 TIF> >0x0D TIF> >0x21 TIF> >0x0D TIF>
 >0x21 TIF>Found Cortex-M4 r0p1, Little endian. -- CPU_WriteMem(4 bytes @ 0xE0002000) -- CPU_ReadMem(4 bytes @ 0xE000EDF0) -- CPU_WriteMem(4 bytes @ 0xE000EDF0) -- CPU_ReadMem(4 bytes @ 0xE0002000)FPUnit: 6 code (BP) slots and 2 literal slots -- CPU_ReadMem(4 bytes @ 0xE000EDFC) -- CPU_WriteMem(4 bytes @ 0xE000EDFC) -- CPU_ReadMem(4 bytes @ 0xE0001000) -- CPU_WriteMem(4 bytes @ 0xE0001000) -- CPU_ReadMem(4 bytes @ 0xE000ED88) -- CPU_WriteMem(4 bytes @ 0xE000ED88) -- CPU_ReadMem(4 bytes @ 0xE000ED88)
 -- CPU_WriteMem(4 bytes @ 0xE000ED88) -- CPU_ReadMem(4 bytes @ 0xE00FF010)TPIU fitted. -- CPU_ReadMem(4 bytes @ 0xE00FF014) -- CPU_ReadMem(4 bytes @ 0xE00FF018) >0x0D TIF> >0x21 TIF>  returns 0x2BA01477 (0034ms, 0733ms total)
T1A70 000:782 JLINK_GetDLLVersion()  returns 49604 (0000ms, 0733ms total)
T1A70 000:782 JLINK_CORE_GetFound()  returns 0xE0000FF (0000ms, 0733ms total)
T1A70 000:782 JLINK_GetDebugInfo(0x100) -- Value=0xE00FF003  returns 0x00 (0000ms, 0733ms total)
T1A70 000:784 JLINK_ReadMem (0xE00FF000, 0x0020 Bytes, ...) -- CPU is running -- CPU_ReadMem(32 bytes @ 0xE00FF000) - Data: 03 F0 F0 FF 03 20 F0 FF 03 30 F0 FF 03 10 F0 FF ...  returns 0x00 (0001ms, 0734ms total)
T1A70 000:785 JLINK_ReadMem (0xE000EFF0, 0x0010 Bytes, ...) -- CPU is running -- CPU_ReadMem(16 bytes @ 0xE000EFF0) - Data: 0D 00 00 00 E0 00 00 00 05 00 00 00 B1 00 00 00  returns 0x00 (0000ms, 0734ms total)
T1A70 000:785 JLINK_ReadMem (0xE000EFD0, 0x0020 Bytes, ...) -- CPU is running -- CPU_ReadMem(32 bytes @ 0xE000EFD0) - Data: 04 00 00 00 00 00 00 00 00 00 00 00 00 00 00 00 ...  returns 0x00 (0001ms, 0735ms total)
T1A70 000:786 JLINK_ReadMem (0xE0001FF0, 0x0010 Bytes, ...) -- CPU is running -- CPU_ReadMem(16 bytes @ 0xE0001FF0) - Data: 0D 00 00 00 E0 00 00 00 05 00 00 00 B1 00 00 00  returns 0x00 (0000ms, 0735ms total)
T1A70 000:786 JLINK_ReadMem (0xE0001FD0, 0x0020 Bytes, ...) -- CPU is running -- CPU_ReadMem(32 bytes @ 0xE0001FD0) - Data: 04 00 00 00 00 00 00 00 00 00 00 00 00 00 00 00 ...  returns 0x00 (0001ms, 0736ms total)
T1A70 000:787 JLINK_ReadMem (0xE0002FF0, 0x0010 Bytes, ...) -- CPU is running -- CPU_ReadMem(16 bytes @ 0xE0002FF0) - Data: 0D 00 00 00 E0 00 00 00 05 00 00 00 B1 00 00 00  returns 0x00 (0001ms, 0737ms total)
T1A70 000:788 JLINK_ReadMem (0xE0002FD0, 0x0020 Bytes, ...) -- CPU is running -- CPU_ReadMem(32 bytes @ 0xE0002FD0) - Data: 04 00 00 00 00 00 00 00 00 00 00 00 00 00 00 00 ...  returns 0x00 (0000ms, 0737ms total)
T1A70 000:788 JLINK_ReadMem (0xE0000FF0, 0x0010 Bytes, ...) -- CPU is running -- CPU_ReadMem(16 bytes @ 0xE0000FF0) - Data: 0D 00 00 00 E0 00 00 00 05 00 00 00 B1 00 00 00  returns 0x00 (0001ms, 0738ms total)
T1A70 000:789 JLINK_ReadMem (0xE0000FD0, 0x0020 Bytes, ...) -- CPU is running -- CPU_ReadMem(32 bytes @ 0xE0000FD0) - Data: 04 00 00 00 00 00 00 00 00 00 00 00 00 00 00 00 ...  returns 0x00 (0000ms, 0738ms total)
T1A70 000:789 JLINK_ReadMem (0xE0040FF0, 0x0010 Bytes, ...) -- CPU is running -- CPU_ReadMem(16 bytes @ 0xE0040FF0) - Data: 0D 00 00 00 90 00 00 00 05 00 00 00 B1 00 00 00  returns 0x00 (0001ms, 0739ms total)
T1A70 000:790 JLINK_ReadMem (0xE0040FD0, 0x0020 Bytes, ...) -- CPU is running -- CPU_ReadMem(32 bytes @ 0xE0040FD0) - Data: 04 00 00 00 00 00 00 00 00 00 00 00 00 00 00 00 ...  returns 0x00 (0000ms, 0739ms total)
T1A70 000:790 JLINK_ReadMemU32(0xE000EF40, 0x0001 Items, ...) -- CPU is running -- CPU_ReadMem(4 bytes @ 0xE000EF40) - Data: 21 00 11 10  returns 0x01 (0001ms, 0740ms total)
T1A70 000:791 JLINK_ReadMemU32(0xE000EF44, 0x0001 Items, ...) -- CPU is running -- CPU_ReadMem(4 bytes @ 0xE000EF44) - Data: 11 00 00 11  returns 0x01 (0000ms, 0740ms total)
T1A70 000:791 JLINK_ReadMemU32(0xE000ED00, 0x0001 Items, ...) -- CPU is running -- CPU_ReadMem(4 bytes @ 0xE000ED00) - Data: 41 C2 0F 41  returns 0x01 (0001ms, 0741ms total)
T1A70 000:792 JLINK_SetResetType(JLINKARM_RESET_TYPE_NORMAL)  returns JLINKARM_RESET_TYPE_NORMAL (0000ms, 0741ms total)
T1A70 000:792 JLINK_Reset() -- CPU is running -- CPU_WriteMem(4 bytes @ 0xE000EDF0) -- CPU is running -- CPU_WriteMem(4 bytes @ 0xE000EDFC) >0x35 TIF> -- CPU is running -- CPU_WriteMem(4 bytes @ 0xE000ED0C) -- CPU is running -- CPU_ReadMem(4 bytes @ 0xE000EDF0) -- CPU is running -- CPU_ReadMem(4 bytes @ 0xE000EDF0) -- CPU is running -- CPU_WriteMem(4 bytes @ 0xE000EDF0) -- CPU is running -- CPU_WriteMem(4 bytes @ 0xE000EDFC) -- CPU is running -- CPU_ReadMem(4 bytes @ 0xE000EDF0)
 -- CPU_WriteMem(4 bytes @ 0xE0002000) -- CPU_ReadMem(4 bytes @ 0xE000EDFC) -- CPU_ReadMem(4 bytes @ 0xE0001000) (0017ms, 0758ms total)
T1A70 000:809 JLINK_Halt()  returns 0x00 (0000ms, 0758ms total)
T1A70 000:809 JLINK_IsHalted()  returns TRUE (0000ms, 0758ms total)
T1A70 000:809 JLINK_ReadMemU32(0xE000EDF0, 0x0001 Items, ...) -- CPU_ReadMem(4 bytes @ 0xE000EDF0) - Data: 03 00 03 00  returns 0x01 (0000ms, 0758ms total)
T1A70 000:809 JLINK_WriteU32(0xE000EDF0, 0xA05F0003) -- CPU_WriteMem(4 bytes @ 0xE000EDF0)  returns 0x00 (0001ms, 0759ms total)
T1A70 000:810 JLINK_WriteU32(0xE000EDFC, 0x01000000) -- CPU_WriteMem(4 bytes @ 0xE000EDFC)  returns 0x00 (0000ms, 0759ms total)
T1A70 000:821 JLINK_GetHWStatus(...)  returns 0x00 (0001ms, 0760ms total)
T1A70 000:829 JLINK_GetNumBPUnits(Type = 0xFFFFFF00)  returns 0x06 (0000ms, 0760ms total)
T1A70 000:829 JLINK_GetNumBPUnits(Type = 0xF0)  returns 0x2000 (0000ms, 0760ms total)
T1A70 000:829 JLINK_GetNumWPUnits()  returns 0x04 (0000ms, 0760ms total)
T1A70 000:836 JLINK_GetSpeed()  returns 0xFA0 (0000ms, 0760ms total)
T1A70 000:842 JLINK_ReadMemU32(0xE000E004, 0x0001 Items, ...) -- CPU_ReadMem(4 bytes @ 0xE000E004) - Data: 01 00 00 00  returns 0x01 (0001ms, 0761ms total)
T1A70 000:843 JLINK_ReadMemU32(0xE000E004, 0x0001 Items, ...) -- CPU_ReadMem(4 bytes @ 0xE000E004) - Data: 01 00 00 00  returns 0x01 (0000ms, 0761ms total)
T1A70 000:843 JLINK_WriteMem(0xE0001000, 0x001C Bytes, ...) - Data: 01 00 00 00 00 00 00 00 00 00 00 00 00 00 00 00 ... -- CPU_WriteMem(28 bytes @ 0xE0001000)  returns 0x1C (0001ms, 0762ms total)
T1A70 000:844 JLINK_ReadMem (0xE0001000, 0x001C Bytes, ...) -- CPU_ReadMem(28 bytes @ 0xE0001000) - Data: 01 00 00 40 00 00 00 00 00 00 00 00 00 00 00 00 ...  returns 0x00 (0000ms, 0762ms total)
T1A70 000:845 JLINK_Halt()  returns 0x00 (0000ms, 0762ms total)
T1A70 000:845 JLINK_IsHalted()  returns TRUE (0000ms, 0762ms total)
T1A70 000:847 JLINK_WriteMem(0x20000000, 0x0184 Bytes, ...) - Data: 00 BE 0A E0 0D 78 2D 06 68 40 08 24 40 00 00 D3 ... -- CPU_WriteMem(388 bytes @ 0x20000000)  returns 0x184 (0003ms, 0765ms total)
T1A70 000:850 JLINK_WriteReg(R0, 0x08000000)  returns 0x00 (0000ms, 0765ms total)
T1A70 000:850 JLINK_WriteReg(R1, 0x00B71B00)  returns 0x00 (0000ms, 0765ms total)
T1A70 000:850 JLINK_WriteReg(R2, 0x00000001)  returns 0x00 (0000ms, 0765ms total)
T1A70 000:850 JLINK_WriteReg(R3, 0x00000000)  returns 0x00 (0000ms, 0765ms total)
T1A70 000:850 JLINK_WriteReg(R4, 0x00000000)  returns 0x00 (0000ms, 0765ms total)
T1A70 000:850 JLINK_WriteReg(R5, 0x00000000)  returns 0x00 (0000ms, 0765ms total)
T1A70 000:850 JLINK_WriteReg(R6, 0x00000000)  returns 0x00 (0000ms, 0765ms total)
T1A70 000:850 JLINK_WriteReg(R7, 0x00000000)  returns 0x00 (0000ms, 0765ms total)
T1A70 000:850 JLINK_WriteReg(R8, 0x00000000)  returns 0x00 (0000ms, 0765ms total)
T1A70 000:850 JLINK_WriteReg(R9, 0x2000017C)  returns 0x00 (0000ms, 0765ms total)
T1A70 000:850 JLINK_WriteReg(R10, 0x00000000)  returns 0x00 (0000ms, 0765ms total)
T1A70 000:850 JLINK_WriteReg(R11, 0x00000000)  returns 0x00 (0000ms, 0765ms total)
T1A70 000:850 JLINK_WriteReg(R12, 0x00000000)  returns 0x00 (0000ms, 0765ms total)
T1A70 000:850 JLINK_WriteReg(R13 (SP), 0x20001000)  returns 0x00 (0000ms, 0765ms total)
T1A70 000:850 JLINK_WriteReg(R14, 0x20000001)  returns 0x00 (0000ms, 0765ms total)
T1A70 000:850 JLINK_WriteReg(R15 (PC), 0x20000038)  returns 0x00 (0000ms, 0765ms total)
T1A70 000:850 JLINK_WriteReg(XPSR, 0x01000000)  returns 0x00 (0000ms, 0765ms total)
T1A70 000:850 JLINK_WriteReg(MSP, 0x20001000)  returns 0x00 (0000ms, 0765ms total)
T1A70 000:850 JLINK_WriteReg(PSP, 0x20001000)  returns 0x00 (0000ms, 0765ms total)
T1A70 000:850 JLINK_WriteReg(CFBP, 0x00000000)  returns 0x00 (0000ms, 0765ms total)
T1A70 000:850 JLINK_SetBPEx(Addr = 0x20000000, Type = 0xFFFFFFF2) -- CPU_ReadMem(4 bytes @ 0x20000000) -- CPU_WriteMem(4 bytes @ 0x20000000) -- CPU_ReadMem(4 bytes @ 0x20000000) -- CPU_WriteMem(4 bytes @ 0x20000000) -- CPU_ReadMem(2 bytes @ 0x20000000)  returns 0x00000001 (0002ms, 0767ms total)
T1A70 000:852 JLINK_Go() -- CPU_WriteMem(2 bytes @ 0x20000000) -- CPU_WriteMem(4 bytes @ 0xE0002008) -- CPU_WriteMem(4 bytes @ 0xE000200C) -- CPU_WriteMem(4 bytes @ 0xE0002010) -- CPU_WriteMem(4 bytes @ 0xE0002014) -- CPU_WriteMem(4 bytes @ 0xE0002018) -- CPU_WriteMem(4 bytes @ 0xE000201C) -- CPU_WriteMem(4 bytes @ 0xE0001004) (0003ms, 0770ms total)
T1A70 000:855 JLINK_IsHalted() -- CPU_ReadMem(2 bytes @ 0x20000000)  returns TRUE (0003ms, 0773ms total)
T1A70 000:858 JLINK_ReadReg(R15 (PC))  returns 0x20000000 (0000ms, 0770ms total)
T1A70 000:858 JLINK_ClrBPEx(BPHandle = 0x00000001)  returns 0x00 (0000ms, 0770ms total)
T1A70 000:858 JLINK_ReadReg(R0)  returns 0x00000000 (0000ms, 0770ms total)
T1A70 000:858 JLINK_WriteReg(R0, 0x08000000)  returns 0x00 (0001ms, 0771ms total)
T1A70 000:859 JLINK_WriteReg(R1, 0x00B71B00)  returns 0x00 (0000ms, 0771ms total)
T1A70 000:859 JLINK_WriteReg(R2, 0x00000001)  returns 0x00 (0000ms, 0771ms total)
T1A70 000:859 JLINK_WriteReg(R3, 0x00000000)  returns 0x00 (0000ms, 0771ms total)
T1A70 000:859 JLINK_WriteReg(R4, 0x00000000)  returns 0x00 (0000ms, 0771ms total)
T1A70 000:859 JLINK_WriteReg(R5, 0x00000000)  returns 0x00 (0000ms, 0771ms total)
T1A70 000:859 JLINK_WriteReg(R6, 0x00000000)  returns 0x00 (0000ms, 0771ms total)
T1A70 000:859 JLINK_WriteReg(R7, 0x00000000)  returns 0x00 (0000ms, 0771ms total)
T1A70 000:859 JLINK_WriteReg(R8, 0x00000000)  returns 0x00 (0000ms, 0771ms total)
T1A70 000:859 JLINK_WriteReg(R9, 0x2000017C)  returns 0x00 (0000ms, 0771ms total)
T1A70 000:859 JLINK_WriteReg(R10, 0x00000000)  returns 0x00 (0000ms, 0771ms total)
T1A70 000:859 JLINK_WriteReg(R11, 0x00000000)  returns 0x00 (0000ms, 0771ms total)
T1A70 000:859 JLINK_WriteReg(R12, 0x00000000)  returns 0x00 (0000ms, 0771ms total)
T1A70 000:859 JLINK_WriteReg(R13 (SP), 0x20001000)  returns 0x00 (0000ms, 0771ms total)
T1A70 000:859 JLINK_WriteReg(R14, 0x20000001)  returns 0x00 (0000ms, 0771ms total)
T1A70 000:859 JLINK_WriteReg(R15 (PC), 0x20000086)  returns 0x00 (0000ms, 0771ms total)
T1A70 000:859 JLINK_WriteReg(XPSR, 0x01000000)  returns 0x00 (0000ms, 0771ms total)
T1A70 000:859 JLINK_WriteReg(MSP, 0x20001000)  returns 0x00 (0000ms, 0771ms total)
T1A70 000:859 JLINK_WriteReg(PSP, 0x20001000)  returns 0x00 (0000ms, 0771ms total)
T1A70 000:859 JLINK_WriteReg(CFBP, 0x00000000)  returns 0x00 (0000ms, 0771ms total)
T1A70 000:859 JLINK_SetBPEx(Addr = 0x20000000, Type = 0xFFFFFFF2)  returns 0x00000002 (0000ms, 0771ms total)
T1A70 000:859 JLINK_Go() (0001ms, 0772ms total)
T1A70 000:860 JLINK_IsHalted()  returns FALSE (0001ms, 0773ms total)
T1A70 000:888 JLINK_IsHalted() -- CPU_ReadMem(2 bytes @ 0x20000000)  returns TRUE (0002ms, 0774ms total)
T1A70 000:890 JLINK_ReadReg(R15 (PC))  returns 0x20000000 (0000ms, 0772ms total)
T1A70 000:890 JLINK_ClrBPEx(BPHandle = 0x00000002)  returns 0x00 (0000ms, 0772ms total)
T1A70 000:890 JLINK_ReadReg(R0)  returns 0x00000000 (0000ms, 0772ms total)
T1A70 000:943 JLINK_WriteReg(R0, 0x00000001)  returns 0x00 (0000ms, 0772ms total)
T1A70 000:943 JLINK_WriteReg(R1, 0x00B71B00)  returns 0x00 (0000ms, 0772ms total)
T1A70 000:943 JLINK_WriteReg(R2, 0x00000001)  returns 0x00 (0000ms, 0772ms total)
T1A70 000:943 JLINK_WriteReg(R3, 0x00000000)  returns 0x00 (0000ms, 0772ms total)
T1A70 000:943 JLINK_WriteReg(R4, 0x00000000)  returns 0x00 (0000ms, 0772ms total)
T1A70 000:943 JLINK_WriteReg(R5, 0x00000000)  returns 0x00 (0000ms, 0772ms total)
T1A70 000:943 JLINK_WriteReg(R6, 0x00000000)  returns 0x00 (0000ms, 0772ms total)
T1A70 000:943 JLINK_WriteReg(R7, 0x00000000)  returns 0x00 (0000ms, 0772ms total)
T1A70 000:943 JLINK_WriteReg(R8, 0x00000000)  returns 0x00 (0000ms, 0772ms total)
T1A70 000:943 JLINK_WriteReg(R9, 0x2000017C)  returns 0x00 (0000ms, 0772ms total)
T1A70 000:943 JLINK_WriteReg(R10, 0x00000000)  returns 0x00 (0000ms, 0772ms total)
T1A70 000:943 JLINK_WriteReg(R11, 0x00000000)  returns 0x00 (0000ms, 0772ms total)
T1A70 000:943 JLINK_WriteReg(R12, 0x00000000)  returns 0x00 (0000ms, 0772ms total)
T1A70 000:943 JLINK_WriteReg(R13 (SP), 0x20001000)  returns 0x00 (0000ms, 0772ms total)
T1A70 000:943 JLINK_WriteReg(R14, 0x20000001)  returns 0x00 (0000ms, 0772ms total)
T1A70 000:943 JLINK_WriteReg(R15 (PC), 0x20000074)  returns 0x00 (0000ms, 0772ms total)
T1A70 000:943 JLINK_WriteReg(XPSR, 0x01000000)  returns 0x00 (0000ms, 0772ms total)
T1A70 000:943 JLINK_WriteReg(MSP, 0x20001000)  returns 0x00 (0000ms, 0772ms total)
T1A70 000:943 JLINK_WriteReg(PSP, 0x20001000)  returns 0x00 (0000ms, 0772ms total)
T1A70 000:943 JLINK_WriteReg(CFBP, 0x00000000)  returns 0x00 (0000ms, 0772ms total)
T1A70 000:943 JLINK_SetBPEx(Addr = 0x20000000, Type = 0xFFFFFFF2)  returns 0x00000003 (0000ms, 0772ms total)
T1A70 000:943 JLINK_Go() (0001ms, 0773ms total)
T1A70 000:944 JLINK_IsHalted() -- CPU_ReadMem(2 bytes @ 0x20000000)  returns TRUE (0003ms, 0776ms total)
T1A70 000:947 JLINK_ReadReg(R15 (PC))  returns 0x20000000 (0000ms, 0773ms total)
T1A70 000:947 JLINK_ClrBPEx(BPHandle = 0x00000003)  returns 0x00 (0000ms, 0773ms total)
T1A70 000:947 JLINK_ReadReg(R0)  returns 0x00000000 (0000ms, 0773ms total)
T1A70 000:953 JLINK_WriteMem(0x20000000, 0x0184 Bytes, ...) - Data: 00 BE 0A E0 0D 78 2D 06 68 40 08 24 40 00 00 D3 ... -- CPU_WriteMem(388 bytes @ 0x20000000)  returns 0x184 (0002ms, 0775ms total)
T1A70 000:955 JLINK_WriteReg(R0, 0x08000000)  returns 0x00 (0000ms, 0775ms total)
T1A70 000:955 JLINK_WriteReg(R1, 0x00B71B00)  returns 0x00 (0000ms, 0775ms total)
T1A70 000:955 JLINK_WriteReg(R2, 0x00000002)  returns 0x00 (0000ms, 0775ms total)
T1A70 000:955 JLINK_WriteReg(R3, 0x00000000)  returns 0x00 (0000ms, 0775ms total)
T1A70 000:955 JLINK_WriteReg(R4, 0x00000000)  returns 0x00 (0000ms, 0775ms total)
T1A70 000:955 JLINK_WriteReg(R5, 0x00000000)  returns 0x00 (0000ms, 0775ms total)
T1A70 000:955 JLINK_WriteReg(R6, 0x00000000)  returns 0x00 (0000ms, 0775ms total)
T1A70 000:955 JLINK_WriteReg(R7, 0x00000000)  returns 0x00 (0000ms, 0775ms total)
T1A70 000:955 JLINK_WriteReg(R8, 0x00000000)  returns 0x00 (0000ms, 0775ms total)
T1A70 000:955 JLINK_WriteReg(R9, 0x2000017C)  returns 0x00 (0000ms, 0775ms total)
T1A70 000:955 JLINK_WriteReg(R10, 0x00000000)  returns 0x00 (0000ms, 0775ms total)
T1A70 000:955 JLINK_WriteReg(R11, 0x00000000)  returns 0x00 (0000ms, 0775ms total)
T1A70 000:955 JLINK_WriteReg(R12, 0x00000000)  returns 0x00 (0000ms, 0775ms total)
T1A70 000:955 JLINK_WriteReg(R13 (SP), 0x20001000)  returns 0x00 (0000ms, 0775ms total)
T1A70 000:955 JLINK_WriteReg(R14, 0x20000001)  returns 0x00 (0000ms, 0775ms total)
T1A70 000:955 JLINK_WriteReg(R15 (PC), 0x20000038)  returns 0x00 (0000ms, 0775ms total)
T1A70 000:955 JLINK_WriteReg(XPSR, 0x01000000)  returns 0x00 (0000ms, 0775ms total)
T1A70 000:955 JLINK_WriteReg(MSP, 0x20001000)  returns 0x00 (0000ms, 0775ms total)
T1A70 000:955 JLINK_WriteReg(PSP, 0x20001000)  returns 0x00 (0000ms, 0775ms total)
T1A70 000:955 JLINK_WriteReg(CFBP, 0x00000000)  returns 0x00 (0000ms, 0775ms total)
T1A70 000:955 JLINK_SetBPEx(Addr = 0x20000000, Type = 0xFFFFFFF2) -- CPU_ReadMem(4 bytes @ 0x20000000) -- CPU_WriteMem(4 bytes @ 0x20000000) -- CPU_ReadMem(4 bytes @ 0x20000000) -- CPU_WriteMem(4 bytes @ 0x20000000) -- CPU_ReadMem(2 bytes @ 0x20000000)  returns 0x00000004 (0002ms, 0777ms total)
T1A70 000:957 JLINK_Go() -- CPU_WriteMem(2 bytes @ 0x20000000) (0002ms, 0779ms total)
T1A70 000:959 JLINK_IsHalted() -- CPU_ReadMem(2 bytes @ 0x20000000)  returns TRUE (0003ms, 0782ms total)
T1A70 000:962 JLINK_ReadReg(R15 (PC))  returns 0x20000000 (0000ms, 0779ms total)
T1A70 000:962 JLINK_ClrBPEx(BPHandle = 0x00000004)  returns 0x00 (0000ms, 0779ms total)
T1A70 000:962 JLINK_ReadReg(R0)  returns 0x00000000 (0000ms, 0779ms total)
T1A70 000:962 JLINK_WriteMem(0x20000184, 0x0800 Bytes, ...) - Data: 60 15 00 20 2D 01 00 08 19 22 00 08 1B 22 00 08 ... -- CPU_WriteMem(2048 bytes @ 0x20000184)  returns 0x800 (0007ms, 0786ms total)
T1A70 000:969 JLINK_WriteReg(R0, 0x08000000)  returns 0x00 (0000ms, 0786ms total)
T1A70 000:969 JLINK_WriteReg(R1, 0x00000800)  returns 0x00 (0000ms, 0786ms total)
T1A70 000:969 JLINK_WriteReg(R2, 0x20000184)  returns 0x00 (0000ms, 0786ms total)
T1A70 000:969 JLINK_WriteReg(R3, 0x00000000)  returns 0x00 (0000ms, 0786ms total)
T1A70 000:969 JLINK_WriteReg(R4, 0x00000000)  returns 0x00 (0000ms, 0786ms total)
T1A70 000:969 JLINK_WriteReg(R5, 0x00000000)  returns 0x00 (0000ms, 0786ms total)
T1A70 000:969 JLINK_WriteReg(R6, 0x00000000)  returns 0x00 (0000ms, 0786ms total)
T1A70 000:969 JLINK_WriteReg(R7, 0x00000000)  returns 0x00 (0000ms, 0786ms total)
T1A70 000:969 JLINK_WriteReg(R8, 0x00000000)  returns 0x00 (0000ms, 0786ms total)
T1A70 000:969 JLINK_WriteReg(R9, 0x2000017C)  returns 0x00 (0000ms, 0786ms total)
T1A70 000:969 JLINK_WriteReg(R10, 0x00000000)  returns 0x00 (0000ms, 0786ms total)
T1A70 000:969 JLINK_WriteReg(R11, 0x00000000)  returns 0x00 (0000ms, 0786ms total)
T1A70 000:969 JLINK_WriteReg(R12, 0x00000000)  returns 0x00 (0000ms, 0786ms total)
T1A70 000:969 JLINK_WriteReg(R13 (SP), 0x20001000)  returns 0x00 (0000ms, 0786ms total)
T1A70 000:969 JLINK_WriteReg(R14, 0x20000001)  returns 0x00 (0000ms, 0786ms total)
T1A70 000:969 JLINK_WriteReg(R15 (PC), 0x20000102)  returns 0x00 (0000ms, 0786ms total)
T1A70 000:969 JLINK_WriteReg(XPSR, 0x01000000)  returns 0x00 (0000ms, 0786ms total)
T1A70 000:969 JLINK_WriteReg(MSP, 0x20001000)  returns 0x00 (0001ms, 0787ms total)
T1A70 000:970 JLINK_WriteReg(PSP, 0x20001000)  returns 0x00 (0000ms, 0787ms total)
T1A70 000:970 JLINK_WriteReg(CFBP, 0x00000000)  returns 0x00 (0000ms, 0787ms total)
T1A70 000:970 JLINK_SetBPEx(Addr = 0x20000000, Type = 0xFFFFFFF2)  returns 0x00000005 (0000ms, 0787ms total)
T1A70 000:970 JLINK_Go() (0001ms, 0788ms total)
T1A70 000:971 JLINK_IsHalted()  returns FALSE (0000ms, 0788ms total)
T1A70 000:975 JLINK_IsHalted()  returns FALSE (0000ms, 0788ms total)
T1A70 000:977 JLINK_IsHalted()  returns FALSE (0000ms, 0788ms total)
T1A70 000:980 JLINK_IsHalted()  returns FALSE (0000ms, 0788ms total)
T1A70 000:982 JLINK_IsHalted()  returns FALSE (0000ms, 0788ms total)
T1A70 000:984 JLINK_IsHalted()  returns FALSE (0000ms, 0788ms total)
T1A70 000:986 JLINK_IsHalted()  returns FALSE (0000ms, 0788ms total)
T1A70 000:988 JLINK_IsHalted()  returns FALSE (0000ms, 0788ms total)
T1A70 000:990 JLINK_IsHalted()  returns FALSE (0000ms, 0788ms total)
T1A70 000:992 JLINK_IsHalted()  returns FALSE (0000ms, 0788ms total)
T1A70 000:994 JLINK_IsHalted()  returns FALSE (0000ms, 0788ms total)
T1A70 000:996 JLINK_IsHalted()  returns FALSE (0000ms, 0788ms total)
T1A70 000:998 JLINK_IsHalted()  returns FALSE (0000ms, 0788ms total)
T1A70 001:000 JLINK_IsHalted()  returns FALSE (0000ms, 0788ms total)
T1A70 001:002 JLINK_IsHalted()  returns FALSE (0000ms, 0788ms total)
T1A70 001:005 JLINK_IsHalted() -- CPU_ReadMem(2 bytes @ 0x20000000)  returns TRUE (0002ms, 0790ms total)
T1A70 001:007 JLINK_ReadReg(R15 (PC))  returns 0x20000000 (0000ms, 0788ms total)
T1A70 001:007 JLINK_ClrBPEx(BPHandle = 0x00000005)  returns 0x00 (0000ms, 0788ms total)
T1A70 001:007 JLINK_ReadReg(R0)  returns 0x00000000 (0000ms, 0788ms total)
T1A70 001:008 JLINK_WriteMem(0x20000184, 0x0800 Bytes, ...) - Data: 11 46 09 68 01 43 11 60 70 47 01 46 B1 F5 02 1F ... -- CPU_WriteMem(2048 bytes @ 0x20000184)  returns 0x800 (0007ms, 0795ms total)
T1A70 001:015 JLINK_WriteReg(R0, 0x08000800)  returns 0x00 (0000ms, 0795ms total)
T1A70 001:015 JLINK_WriteReg(R1, 0x00000800)  returns 0x00 (0000ms, 0795ms total)
T1A70 001:015 JLINK_WriteReg(R2, 0x20000184)  returns 0x00 (0000ms, 0795ms total)
T1A70 001:015 JLINK_WriteReg(R3, 0x00000000)  returns 0x00 (0000ms, 0795ms total)
T1A70 001:015 JLINK_WriteReg(R4, 0x00000000)  returns 0x00 (0000ms, 0795ms total)
T1A70 001:015 JLINK_WriteReg(R5, 0x00000000)  returns 0x00 (0000ms, 0795ms total)
T1A70 001:015 JLINK_WriteReg(R6, 0x00000000)  returns 0x00 (0000ms, 0795ms total)
T1A70 001:015 JLINK_WriteReg(R7, 0x00000000)  returns 0x00 (0000ms, 0795ms total)
T1A70 001:015 JLINK_WriteReg(R8, 0x00000000)  returns 0x00 (0000ms, 0795ms total)
T1A70 001:015 JLINK_WriteReg(R9, 0x2000017C)  returns 0x00 (0000ms, 0795ms total)
T1A70 001:015 JLINK_WriteReg(R10, 0x00000000)  returns 0x00 (0000ms, 0795ms total)
T1A70 001:015 JLINK_WriteReg(R11, 0x00000000)  returns 0x00 (0000ms, 0795ms total)
T1A70 001:015 JLINK_WriteReg(R12, 0x00000000)  returns 0x00 (0000ms, 0795ms total)
T1A70 001:015 JLINK_WriteReg(R13 (SP), 0x20001000)  returns 0x00 (0000ms, 0795ms total)
T1A70 001:015 JLINK_WriteReg(R14, 0x20000001)  returns 0x00 (0000ms, 0795ms total)
T1A70 001:015 JLINK_WriteReg(R15 (PC), 0x20000102)  returns 0x00 (0000ms, 0795ms total)
T1A70 001:015 JLINK_WriteReg(XPSR, 0x01000000)  returns 0x00 (0000ms, 0795ms total)
T1A70 001:015 JLINK_WriteReg(MSP, 0x20001000)  returns 0x00 (0000ms, 0795ms total)
T1A70 001:015 JLINK_WriteReg(PSP, 0x20001000)  returns 0x00 (0000ms, 0795ms total)
T1A70 001:015 JLINK_WriteReg(CFBP, 0x00000000)  returns 0x00 (0000ms, 0795ms total)
T1A70 001:015 JLINK_SetBPEx(Addr = 0x20000000, Type = 0xFFFFFFF2)  returns 0x00000006 (0000ms, 0795ms total)
T1A70 001:015 JLINK_Go() (0002ms, 0797ms total)
T1A70 001:017 JLINK_IsHalted()  returns FALSE (0000ms, 0797ms total)
T1A70 001:019 JLINK_IsHalted()  returns FALSE (0000ms, 0797ms total)
T1A70 001:021 JLINK_IsHalted()  returns FALSE (0000ms, 0797ms total)
T1A70 001:023 JLINK_IsHalted()  returns FALSE (0000ms, 0797ms total)
T1A70 001:026 JLINK_IsHalted()  returns FALSE (0000ms, 0797ms total)
T1A70 001:028 JLINK_IsHalted()  returns FALSE (0000ms, 0797ms total)
T1A70 001:030 JLINK_IsHalted()  returns FALSE (0000ms, 0797ms total)
T1A70 001:032 JLINK_IsHalted()  returns FALSE (0000ms, 0797ms total)
T1A70 001:034 JLINK_IsHalted()  returns FALSE (0000ms, 0797ms total)
T1A70 001:036 JLINK_IsHalted()  returns FALSE (0000ms, 0797ms total)
T1A70 001:038 JLINK_IsHalted()  returns FALSE (0000ms, 0797ms total)
T1A70 001:040 JLINK_IsHalted()  returns FALSE (0000ms, 0797ms total)
T1A70 001:042 JLINK_IsHalted()  returns FALSE (0000ms, 0797ms total)
T1A70 001:044 JLINK_IsHalted()  returns FALSE (0000ms, 0797ms total)
T1A70 001:046 JLINK_IsHalted()  returns FALSE (0000ms, 0797ms total)
T1A70 001:048 JLINK_IsHalted()  returns FALSE (0000ms, 0797ms total)
T1A70 001:050 JLINK_IsHalted() -- CPU_ReadMem(2 bytes @ 0x20000000)  returns TRUE (0002ms, 0799ms total)
T1A70 001:052 JLINK_ReadReg(R15 (PC))  returns 0x20000000 (0000ms, 0797ms total)
T1A70 001:052 JLINK_ClrBPEx(BPHandle = 0x00000006)  returns 0x00 (0000ms, 0797ms total)
T1A70 001:052 JLINK_ReadReg(R0)  returns 0x00000000 (0000ms, 0797ms total)
T1A70 001:053 JLINK_WriteMem(0x20000184, 0x0800 Bytes, ...) - Data: 00 09 3D 00 00 12 7A 00 D6 2A 00 08 E6 2A 00 08 ... -- CPU_WriteMem(2048 bytes @ 0x20000184)  returns 0x800 (0007ms, 0804ms total)
T1A70 001:060 JLINK_WriteReg(R0, 0x08001000)  returns 0x00 (0000ms, 0804ms total)
T1A70 001:060 JLINK_WriteReg(R1, 0x00000800)  returns 0x00 (0000ms, 0804ms total)
T1A70 001:060 JLINK_WriteReg(R2, 0x20000184)  returns 0x00 (0000ms, 0804ms total)
T1A70 001:060 JLINK_WriteReg(R3, 0x00000000)  returns 0x00 (0000ms, 0804ms total)
T1A70 001:060 JLINK_WriteReg(R4, 0x00000000)  returns 0x00 (0000ms, 0804ms total)
T1A70 001:060 JLINK_WriteReg(R5, 0x00000000)  returns 0x00 (0000ms, 0804ms total)
T1A70 001:060 JLINK_WriteReg(R6, 0x00000000)  returns 0x00 (0000ms, 0804ms total)
T1A70 001:060 JLINK_WriteReg(R7, 0x00000000)  returns 0x00 (0000ms, 0804ms total)
T1A70 001:060 JLINK_WriteReg(R8, 0x00000000)  returns 0x00 (0000ms, 0804ms total)
T1A70 001:060 JLINK_WriteReg(R9, 0x2000017C)  returns 0x00 (0000ms, 0804ms total)
T1A70 001:060 JLINK_WriteReg(R10, 0x00000000)  returns 0x00 (0000ms, 0804ms total)
T1A70 001:060 JLINK_WriteReg(R11, 0x00000000)  returns 0x00 (0000ms, 0804ms total)
T1A70 001:060 JLINK_WriteReg(R12, 0x00000000)  returns 0x00 (0000ms, 0804ms total)
T1A70 001:060 JLINK_WriteReg(R13 (SP), 0x20001000)  returns 0x00 (0000ms, 0804ms total)
T1A70 001:060 JLINK_WriteReg(R14, 0x20000001)  returns 0x00 (0000ms, 0804ms total)
T1A70 001:060 JLINK_WriteReg(R15 (PC), 0x20000102)  returns 0x00 (0000ms, 0804ms total)
T1A70 001:060 JLINK_WriteReg(XPSR, 0x01000000)  returns 0x00 (0000ms, 0804ms total)
T1A70 001:060 JLINK_WriteReg(MSP, 0x20001000)  returns 0x00 (0000ms, 0804ms total)
T1A70 001:060 JLINK_WriteReg(PSP, 0x20001000)  returns 0x00 (0000ms, 0804ms total)
T1A70 001:060 JLINK_WriteReg(CFBP, 0x00000000)  returns 0x00 (0000ms, 0804ms total)
T1A70 001:060 JLINK_SetBPEx(Addr = 0x20000000, Type = 0xFFFFFFF2)  returns 0x00000007 (0000ms, 0804ms total)
T1A70 001:060 JLINK_Go() (0002ms, 0806ms total)
T1A70 001:062 JLINK_IsHalted()  returns FALSE (0000ms, 0806ms total)
T1A70 001:064 JLINK_IsHalted()  returns FALSE (0000ms, 0806ms total)
T1A70 001:066 JLINK_IsHalted()  returns FALSE (0000ms, 0806ms total)
T1A70 001:068 JLINK_IsHalted()  returns FALSE (0000ms, 0806ms total)
T1A70 001:070 JLINK_IsHalted()  returns FALSE (0000ms, 0806ms total)
T1A70 001:072 JLINK_IsHalted()  returns FALSE (0000ms, 0806ms total)
T1A70 001:074 JLINK_IsHalted()  returns FALSE (0000ms, 0806ms total)
T1A70 001:077 JLINK_IsHalted()  returns FALSE (0000ms, 0806ms total)
T1A70 001:079 JLINK_IsHalted()  returns FALSE (0000ms, 0806ms total)
T1A70 001:081 JLINK_IsHalted()  returns FALSE (0000ms, 0806ms total)
T1A70 001:083 JLINK_IsHalted()  returns FALSE (0000ms, 0806ms total)
T1A70 001:085 JLINK_IsHalted()  returns FALSE (0000ms, 0806ms total)
T1A70 001:087 JLINK_IsHalted()  returns FALSE (0000ms, 0806ms total)
T1A70 001:089 JLINK_IsHalted()  returns FALSE (0000ms, 0806ms total)
T1A70 001:091 JLINK_IsHalted()  returns FALSE (0000ms, 0806ms total)
T1A70 001:093 JLINK_IsHalted()  returns FALSE (0000ms, 0806ms total)
T1A70 001:095 JLINK_IsHalted() -- CPU_ReadMem(2 bytes @ 0x20000000)  returns TRUE (0002ms, 0808ms total)
T1A70 001:097 JLINK_ReadReg(R15 (PC))  returns 0x20000000 (0000ms, 0806ms total)
T1A70 001:097 JLINK_ClrBPEx(BPHandle = 0x00000007)  returns 0x00 (0000ms, 0806ms total)
T1A70 001:097 JLINK_ReadReg(R0)  returns 0x00000000 (0000ms, 0806ms total)
T1A70 001:098 JLINK_WriteMem(0x20000184, 0x0800 Bytes, ...) - Data: 81 60 01 61 70 47 02 46 10 69 08 40 08 B1 01 20 ... -- CPU_WriteMem(2048 bytes @ 0x20000184)  returns 0x800 (0007ms, 0813ms total)
T1A70 001:105 JLINK_WriteReg(R0, 0x08001800)  returns 0x00 (0000ms, 0813ms total)
T1A70 001:105 JLINK_WriteReg(R1, 0x00000800)  returns 0x00 (0000ms, 0813ms total)
T1A70 001:105 JLINK_WriteReg(R2, 0x20000184)  returns 0x00 (0000ms, 0813ms total)
T1A70 001:105 JLINK_WriteReg(R3, 0x00000000)  returns 0x00 (0000ms, 0813ms total)
T1A70 001:105 JLINK_WriteReg(R4, 0x00000000)  returns 0x00 (0000ms, 0813ms total)
T1A70 001:105 JLINK_WriteReg(R5, 0x00000000)  returns 0x00 (0000ms, 0813ms total)
T1A70 001:105 JLINK_WriteReg(R6, 0x00000000)  returns 0x00 (0000ms, 0813ms total)
T1A70 001:105 JLINK_WriteReg(R7, 0x00000000)  returns 0x00 (0000ms, 0813ms total)
T1A70 001:105 JLINK_WriteReg(R8, 0x00000000)  returns 0x00 (0000ms, 0813ms total)
T1A70 001:105 JLINK_WriteReg(R9, 0x2000017C)  returns 0x00 (0000ms, 0813ms total)
T1A70 001:105 JLINK_WriteReg(R10, 0x00000000)  returns 0x00 (0000ms, 0813ms total)
T1A70 001:105 JLINK_WriteReg(R11, 0x00000000)  returns 0x00 (0000ms, 0813ms total)
T1A70 001:105 JLINK_WriteReg(R12, 0x00000000)  returns 0x00 (0000ms, 0813ms total)
T1A70 001:105 JLINK_WriteReg(R13 (SP), 0x20001000)  returns 0x00 (0000ms, 0813ms total)
T1A70 001:105 JLINK_WriteReg(R14, 0x20000001)  returns 0x00 (0000ms, 0813ms total)
T1A70 001:105 JLINK_WriteReg(R15 (PC), 0x20000102)  returns 0x00 (0000ms, 0813ms total)
T1A70 001:105 JLINK_WriteReg(XPSR, 0x01000000)  returns 0x00 (0000ms, 0813ms total)
T1A70 001:105 JLINK_WriteReg(MSP, 0x20001000)  returns 0x00 (0000ms, 0813ms total)
T1A70 001:105 JLINK_WriteReg(PSP, 0x20001000)  returns 0x00 (0000ms, 0813ms total)
T1A70 001:105 JLINK_WriteReg(CFBP, 0x00000000)  returns 0x00 (0000ms, 0813ms total)
T1A70 001:105 JLINK_SetBPEx(Addr = 0x20000000, Type = 0xFFFFFFF2)  returns 0x00000008 (0000ms, 0813ms total)
T1A70 001:105 JLINK_Go() (0001ms, 0814ms total)
T1A70 001:106 JLINK_IsHalted()  returns FALSE (0001ms, 0815ms total)
T1A70 001:109 JLINK_IsHalted()  returns FALSE (0000ms, 0814ms total)
T1A70 001:111 JLINK_IsHalted()  returns FALSE (0000ms, 0814ms total)
T1A70 001:113 JLINK_IsHalted()  returns FALSE (0000ms, 0814ms total)
T1A70 001:115 JLINK_IsHalted()  returns FALSE (0000ms, 0814ms total)
T1A70 001:117 JLINK_IsHalted()  returns FALSE (0000ms, 0814ms total)
T1A70 001:119 JLINK_IsHalted()  returns FALSE (0000ms, 0814ms total)
T1A70 001:121 JLINK_IsHalted()  returns FALSE (0000ms, 0814ms total)
T1A70 001:123 JLINK_IsHalted()  returns FALSE (0000ms, 0814ms total)
T1A70 001:125 JLINK_IsHalted()  returns FALSE (0000ms, 0814ms total)
T1A70 001:127 JLINK_IsHalted()  returns FALSE (0000ms, 0814ms total)
T1A70 001:129 JLINK_IsHalted()  returns FALSE (0000ms, 0814ms total)
T1A70 001:131 JLINK_IsHalted()  returns FALSE (0000ms, 0814ms total)
T1A70 001:133 JLINK_IsHalted()  returns FALSE (0000ms, 0814ms total)
T1A70 001:136 JLINK_IsHalted()  returns FALSE (0000ms, 0814ms total)
T1A70 001:138 JLINK_IsHalted()  returns FALSE (0000ms, 0814ms total)
T1A70 001:140 JLINK_IsHalted() -- CPU_ReadMem(2 bytes @ 0x20000000)  returns TRUE (0002ms, 0816ms total)
T1A70 001:142 JLINK_ReadReg(R15 (PC))  returns 0x20000000 (0000ms, 0814ms total)
T1A70 001:142 JLINK_ClrBPEx(BPHandle = 0x00000008)  returns 0x00 (0000ms, 0814ms total)
T1A70 001:142 JLINK_ReadReg(R0)  returns 0x00000000 (0000ms, 0814ms total)
T1A70 001:143 JLINK_WriteMem(0x20000184, 0x0800 Bytes, ...) - Data: 01 D1 10 30 00 E0 14 30 06 68 2E 43 06 60 70 BD ... -- CPU_WriteMem(2048 bytes @ 0x20000184)  returns 0x800 (0007ms, 0821ms total)
T1A70 001:150 JLINK_WriteReg(R0, 0x08002000)  returns 0x00 (0000ms, 0821ms total)
T1A70 001:150 JLINK_WriteReg(R1, 0x00000800)  returns 0x00 (0000ms, 0821ms total)
T1A70 001:150 JLINK_WriteReg(R2, 0x20000184)  returns 0x00 (0000ms, 0821ms total)
T1A70 001:150 JLINK_WriteReg(R3, 0x00000000)  returns 0x00 (0000ms, 0821ms total)
T1A70 001:150 JLINK_WriteReg(R4, 0x00000000)  returns 0x00 (0000ms, 0821ms total)
T1A70 001:150 JLINK_WriteReg(R5, 0x00000000)  returns 0x00 (0000ms, 0821ms total)
T1A70 001:150 JLINK_WriteReg(R6, 0x00000000)  returns 0x00 (0000ms, 0821ms total)
T1A70 001:150 JLINK_WriteReg(R7, 0x00000000)  returns 0x00 (0000ms, 0821ms total)
T1A70 001:150 JLINK_WriteReg(R8, 0x00000000)  returns 0x00 (0000ms, 0821ms total)
T1A70 001:150 JLINK_WriteReg(R9, 0x2000017C)  returns 0x00 (0000ms, 0821ms total)
T1A70 001:150 JLINK_WriteReg(R10, 0x00000000)  returns 0x00 (0000ms, 0821ms total)
T1A70 001:150 JLINK_WriteReg(R11, 0x00000000)  returns 0x00 (0000ms, 0821ms total)
T1A70 001:150 JLINK_WriteReg(R12, 0x00000000)  returns 0x00 (0000ms, 0821ms total)
T1A70 001:150 JLINK_WriteReg(R13 (SP), 0x20001000)  returns 0x00 (0000ms, 0821ms total)
T1A70 001:150 JLINK_WriteReg(R14, 0x20000001)  returns 0x00 (0000ms, 0821ms total)
T1A70 001:150 JLINK_WriteReg(R15 (PC), 0x20000102)  returns 0x00 (0000ms, 0821ms total)
T1A70 001:150 JLINK_WriteReg(XPSR, 0x01000000)  returns 0x00 (0000ms, 0821ms total)
T1A70 001:150 JLINK_WriteReg(MSP, 0x20001000)  returns 0x00 (0000ms, 0821ms total)
T1A70 001:150 JLINK_WriteReg(PSP, 0x20001000)  returns 0x00 (0001ms, 0822ms total)
T1A70 001:151 JLINK_WriteReg(CFBP, 0x00000000)  returns 0x00 (0000ms, 0822ms total)
T1A70 001:151 JLINK_SetBPEx(Addr = 0x20000000, Type = 0xFFFFFFF2)  returns 0x00000009 (0000ms, 0822ms total)
T1A70 001:151 JLINK_Go() (0001ms, 0823ms total)
T1A70 001:152 JLINK_IsHalted()  returns FALSE (0000ms, 0823ms total)
T1A70 001:154 JLINK_IsHalted()  returns FALSE (0000ms, 0823ms total)
T1A70 001:156 JLINK_IsHalted()  returns FALSE (0000ms, 0823ms total)
T1A70 001:158 JLINK_IsHalted()  returns FALSE (0000ms, 0823ms total)
T1A70 001:160 JLINK_IsHalted()  returns FALSE (0000ms, 0823ms total)
T1A70 001:162 JLINK_IsHalted()  returns FALSE (0000ms, 0823ms total)
T1A70 001:164 JLINK_IsHalted()  returns FALSE (0000ms, 0823ms total)
T1A70 001:166 JLINK_IsHalted()  returns FALSE (0000ms, 0823ms total)
T1A70 001:168 JLINK_IsHalted()  returns FALSE (0000ms, 0823ms total)
T1A70 001:170 JLINK_IsHalted()  returns FALSE (0000ms, 0823ms total)
T1A70 001:172 JLINK_IsHalted()  returns FALSE (0000ms, 0823ms total)
T1A70 001:174 JLINK_IsHalted()  returns FALSE (0000ms, 0823ms total)
T1A70 001:176 JLINK_IsHalted()  returns FALSE (0000ms, 0823ms total)
T1A70 001:178 JLINK_IsHalted()  returns FALSE (0000ms, 0823ms total)
T1A70 001:180 JLINK_IsHalted()  returns FALSE (0000ms, 0823ms total)
T1A70 001:182 JLINK_IsHalted()  returns FALSE (0000ms, 0823ms total)
T1A70 001:184 JLINK_IsHalted()  returns FALSE (0000ms, 0823ms total)
T1A70 001:186 JLINK_IsHalted() -- CPU_ReadMem(2 bytes @ 0x20000000)  returns TRUE (0002ms, 0825ms total)
T1A70 001:188 JLINK_ReadReg(R15 (PC))  returns 0x20000000 (0000ms, 0823ms total)
T1A70 001:188 JLINK_ClrBPEx(BPHandle = 0x00000009)  returns 0x00 (0000ms, 0823ms total)
T1A70 001:188 JLINK_ReadReg(R0)  returns 0x00000000 (0000ms, 0823ms total)
T1A70 001:189 JLINK_WriteMem(0x20000184, 0x0800 Bytes, ...) - Data: 88 46 49 45 0F DA 80 45 F8 DB 1B F8 08 10 00 29 ... -- CPU_WriteMem(2048 bytes @ 0x20000184)  returns 0x800 (0007ms, 0830ms total)
T1A70 001:196 JLINK_WriteReg(R0, 0x08002800)  returns 0x00 (0000ms, 0830ms total)
T1A70 001:196 JLINK_WriteReg(R1, 0x00000350)  returns 0x00 (0000ms, 0830ms total)
T1A70 001:196 JLINK_WriteReg(R2, 0x20000184)  returns 0x00 (0000ms, 0830ms total)
T1A70 001:196 JLINK_WriteReg(R3, 0x00000000)  returns 0x00 (0000ms, 0830ms total)
T1A70 001:196 JLINK_WriteReg(R4, 0x00000000)  returns 0x00 (0000ms, 0830ms total)
T1A70 001:196 JLINK_WriteReg(R5, 0x00000000)  returns 0x00 (0000ms, 0830ms total)
T1A70 001:196 JLINK_WriteReg(R6, 0x00000000)  returns 0x00 (0000ms, 0830ms total)
T1A70 001:196 JLINK_WriteReg(R7, 0x00000000)  returns 0x00 (0000ms, 0830ms total)
T1A70 001:196 JLINK_WriteReg(R8, 0x00000000)  returns 0x00 (0000ms, 0830ms total)
T1A70 001:196 JLINK_WriteReg(R9, 0x2000017C)  returns 0x00 (0000ms, 0830ms total)
T1A70 001:196 JLINK_WriteReg(R10, 0x00000000)  returns 0x00 (0000ms, 0830ms total)
T1A70 001:196 JLINK_WriteReg(R11, 0x00000000)  returns 0x00 (0000ms, 0830ms total)
T1A70 001:196 JLINK_WriteReg(R12, 0x00000000)  returns 0x00 (0000ms, 0830ms total)
T1A70 001:196 JLINK_WriteReg(R13 (SP), 0x20001000)  returns 0x00 (0000ms, 0830ms total)
T1A70 001:196 JLINK_WriteReg(R14, 0x20000001)  returns 0x00 (0000ms, 0830ms total)
T1A70 001:196 JLINK_WriteReg(R15 (PC), 0x20000102)  returns 0x00 (0000ms, 0830ms total)
T1A70 001:196 JLINK_WriteReg(XPSR, 0x01000000)  returns 0x00 (0000ms, 0830ms total)
T1A70 001:196 JLINK_WriteReg(MSP, 0x20001000)  returns 0x00 (0001ms, 0831ms total)
T1A70 001:197 JLINK_WriteReg(PSP, 0x20001000)  returns 0x00 (0000ms, 0831ms total)
T1A70 001:197 JLINK_WriteReg(CFBP, 0x00000000)  returns 0x00 (0000ms, 0831ms total)
T1A70 001:197 JLINK_SetBPEx(Addr = 0x20000000, Type = 0xFFFFFFF2)  returns 0x0000000A (0000ms, 0831ms total)
T1A70 001:197 JLINK_Go() (0001ms, 0832ms total)
T1A70 001:198 JLINK_IsHalted()  returns FALSE (0000ms, 0832ms total)
T1A70 001:201 JLINK_IsHalted()  returns FALSE (0000ms, 0832ms total)
T1A70 001:203 JLINK_IsHalted()  returns FALSE (0000ms, 0832ms total)
T1A70 001:205 JLINK_IsHalted()  returns FALSE (0000ms, 0832ms total)
T1A70 001:207 JLINK_IsHalted()  returns FALSE (0000ms, 0832ms total)
T1A70 001:209 JLINK_IsHalted()  returns FALSE (0000ms, 0832ms total)
T1A70 001:211 JLINK_IsHalted()  returns FALSE (0000ms, 0832ms total)
T1A70 001:213 JLINK_IsHalted() -- CPU_ReadMem(2 bytes @ 0x20000000)  returns TRUE (0002ms, 0834ms total)
T1A70 001:215 JLINK_ReadReg(R15 (PC))  returns 0x20000000 (0000ms, 0832ms total)
T1A70 001:215 JLINK_ClrBPEx(BPHandle = 0x0000000A)  returns 0x00 (0001ms, 0833ms total)
T1A70 001:216 JLINK_ReadReg(R0)  returns 0x00000000 (0000ms, 0833ms total)
T1A70 001:216 JLINK_WriteReg(R0, 0x00000002)  returns 0x00 (0000ms, 0833ms total)
T1A70 001:216 JLINK_WriteReg(R1, 0x00000350)  returns 0x00 (0000ms, 0833ms total)
T1A70 001:216 JLINK_WriteReg(R2, 0x20000184)  returns 0x00 (0000ms, 0833ms total)
T1A70 001:216 JLINK_WriteReg(R3, 0x00000000)  returns 0x00 (0000ms, 0833ms total)
T1A70 001:216 JLINK_WriteReg(R4, 0x00000000)  returns 0x00 (0000ms, 0833ms total)
T1A70 001:216 JLINK_WriteReg(R5, 0x00000000)  returns 0x00 (0000ms, 0833ms total)
T1A70 001:216 JLINK_WriteReg(R6, 0x00000000)  returns 0x00 (0000ms, 0833ms total)
T1A70 001:216 JLINK_WriteReg(R7, 0x00000000)  returns 0x00 (0000ms, 0833ms total)
T1A70 001:216 JLINK_WriteReg(R8, 0x00000000)  returns 0x00 (0000ms, 0833ms total)
T1A70 001:216 JLINK_WriteReg(R9, 0x2000017C)  returns 0x00 (0000ms, 0833ms total)
T1A70 001:216 JLINK_WriteReg(R10, 0x00000000)  returns 0x00 (0000ms, 0833ms total)
T1A70 001:216 JLINK_WriteReg(R11, 0x00000000)  returns 0x00 (0000ms, 0833ms total)
T1A70 001:216 JLINK_WriteReg(R12, 0x00000000)  returns 0x00 (0000ms, 0833ms total)
T1A70 001:216 JLINK_WriteReg(R13 (SP), 0x20001000)  returns 0x00 (0000ms, 0833ms total)
T1A70 001:216 JLINK_WriteReg(R14, 0x20000001)  returns 0x00 (0000ms, 0833ms total)
T1A70 001:216 JLINK_WriteReg(R15 (PC), 0x20000074)  returns 0x00 (0000ms, 0833ms total)
T1A70 001:216 JLINK_WriteReg(XPSR, 0x01000000)  returns 0x00 (0000ms, 0833ms total)
T1A70 001:216 JLINK_WriteReg(MSP, 0x20001000)  returns 0x00 (0000ms, 0833ms total)
T1A70 001:216 JLINK_WriteReg(PSP, 0x20001000)  returns 0x00 (0000ms, 0833ms total)
T1A70 001:216 JLINK_WriteReg(CFBP, 0x00000000)  returns 0x00 (0000ms, 0833ms total)
T1A70 001:216 JLINK_SetBPEx(Addr = 0x20000000, Type = 0xFFFFFFF2)  returns 0x0000000B (0000ms, 0833ms total)
T1A70 001:216 JLINK_Go() (0001ms, 0834ms total)
T1A70 001:218 JLINK_IsHalted() -- CPU_ReadMem(2 bytes @ 0x20000000)  returns TRUE (0002ms, 0837ms total)
T1A70 001:220 JLINK_ReadReg(R15 (PC))  returns 0x20000000 (0000ms, 0835ms total)
T1A70 001:220 JLINK_ClrBPEx(BPHandle = 0x0000000B)  returns 0x00 (0000ms, 0835ms total)
T1A70 001:220 JLINK_ReadReg(R0)  returns 0x00000000 (0000ms, 0835ms total)
T1A70 001:278 JLINK_WriteMem(0x20000000, 0x0184 Bytes, ...) - Data: 00 BE 0A E0 0D 78 2D 06 68 40 08 24 40 00 00 D3 ... -- CPU_WriteMem(388 bytes @ 0x20000000)  returns 0x184 (0002ms, 0837ms total)
T1A70 001:280 JLINK_WriteReg(R0, 0x08000000)  returns 0x00 (0000ms, 0837ms total)
T1A70 001:280 JLINK_WriteReg(R1, 0x00B71B00)  returns 0x00 (0000ms, 0837ms total)
T1A70 001:280 JLINK_WriteReg(R2, 0x00000003)  returns 0x00 (0000ms, 0837ms total)
T1A70 001:280 JLINK_WriteReg(R3, 0x00000000)  returns 0x00 (0000ms, 0837ms total)
T1A70 001:280 JLINK_WriteReg(R4, 0x00000000)  returns 0x00 (0000ms, 0837ms total)
T1A70 001:280 JLINK_WriteReg(R5, 0x00000000)  returns 0x00 (0000ms, 0837ms total)
T1A70 001:280 JLINK_WriteReg(R6, 0x00000000)  returns 0x00 (0000ms, 0837ms total)
T1A70 001:280 JLINK_WriteReg(R7, 0x00000000)  returns 0x00 (0000ms, 0837ms total)
T1A70 001:280 JLINK_WriteReg(R8, 0x00000000)  returns 0x00 (0000ms, 0837ms total)
T1A70 001:280 JLINK_WriteReg(R9, 0x2000017C)  returns 0x00 (0000ms, 0837ms total)
T1A70 001:280 JLINK_WriteReg(R10, 0x00000000)  returns 0x00 (0000ms, 0837ms total)
T1A70 001:280 JLINK_WriteReg(R11, 0x00000000)  returns 0x00 (0000ms, 0837ms total)
T1A70 001:280 JLINK_WriteReg(R12, 0x00000000)  returns 0x00 (0000ms, 0837ms total)
T1A70 001:280 JLINK_WriteReg(R13 (SP), 0x20001000)  returns 0x00 (0000ms, 0837ms total)
T1A70 001:280 JLINK_WriteReg(R14, 0x20000001)  returns 0x00 (0000ms, 0837ms total)
T1A70 001:280 JLINK_WriteReg(R15 (PC), 0x20000038)  returns 0x00 (0000ms, 0837ms total)
T1A70 001:280 JLINK_WriteReg(XPSR, 0x01000000)  returns 0x00 (0000ms, 0837ms total)
T1A70 001:280 JLINK_WriteReg(MSP, 0x20001000)  returns 0x00 (0000ms, 0837ms total)
T1A70 001:280 JLINK_WriteReg(PSP, 0x20001000)  returns 0x00 (0000ms, 0837ms total)
T1A70 001:280 JLINK_WriteReg(CFBP, 0x00000000)  returns 0x00 (0000ms, 0837ms total)
T1A70 001:280 JLINK_SetBPEx(Addr = 0x20000000, Type = 0xFFFFFFF2) -- CPU_ReadMem(4 bytes @ 0x20000000) -- CPU_WriteMem(4 bytes @ 0x20000000) -- CPU_ReadMem(4 bytes @ 0x20000000) -- CPU_WriteMem(4 bytes @ 0x20000000) -- CPU_ReadMem(2 bytes @ 0x20000000)  returns 0x0000000C (0002ms, 0839ms total)
T1A70 001:282 JLINK_Go() -- CPU_WriteMem(2 bytes @ 0x20000000) (0002ms, 0841ms total)
T1A70 001:284 JLINK_IsHalted() -- CPU_ReadMem(2 bytes @ 0x20000000)  returns TRUE (0003ms, 0844ms total)
T1A70 001:287 JLINK_ReadReg(R15 (PC))  returns 0x20000000 (0000ms, 0841ms total)
T1A70 001:287 JLINK_ClrBPEx(BPHandle = 0x0000000C)  returns 0x00 (0000ms, 0841ms total)
T1A70 001:287 JLINK_ReadReg(R0)  returns 0x00000000 (0000ms, 0841ms total)
T1A70 001:287 JLINK_WriteReg(R0, 0xFFFFFFFF)  returns 0x00 (0000ms, 0841ms total)
T1A70 001:287 JLINK_WriteReg(R1, 0x08000000)  returns 0x00 (0000ms, 0841ms total)
T1A70 001:287 JLINK_WriteReg(R2, 0x00002B50)  returns 0x00 (0000ms, 0841ms total)
T1A70 001:287 JLINK_WriteReg(R3, 0x04C11DB7)  returns 0x00 (0000ms, 0841ms total)
T1A70 001:287 JLINK_WriteReg(R4, 0x00000000)  returns 0x00 (0000ms, 0841ms total)
T1A70 001:287 JLINK_WriteReg(R5, 0x00000000)  returns 0x00 (0000ms, 0841ms total)
T1A70 001:287 JLINK_WriteReg(R6, 0x00000000)  returns 0x00 (0000ms, 0841ms total)
T1A70 001:287 JLINK_WriteReg(R7, 0x00000000)  returns 0x00 (0000ms, 0841ms total)
T1A70 001:287 JLINK_WriteReg(R8, 0x00000000)  returns 0x00 (0000ms, 0841ms total)
T1A70 001:287 JLINK_WriteReg(R9, 0x2000017C)  returns 0x00 (0000ms, 0841ms total)
T1A70 001:287 JLINK_WriteReg(R10, 0x00000000)  returns 0x00 (0000ms, 0841ms total)
T1A70 001:287 JLINK_WriteReg(R11, 0x00000000)  returns 0x00 (0000ms, 0841ms total)
T1A70 001:287 JLINK_WriteReg(R12, 0x00000000)  returns 0x00 (0000ms, 0841ms total)
T1A70 001:287 JLINK_WriteReg(R13 (SP), 0x20001000)  returns 0x00 (0000ms, 0841ms total)
T1A70 001:287 JLINK_WriteReg(R14, 0x20000001)  returns 0x00 (0000ms, 0841ms total)
T1A70 001:287 JLINK_WriteReg(R15 (PC), 0x20000002)  returns 0x00 (0000ms, 0841ms total)
T1A70 001:287 JLINK_WriteReg(XPSR, 0x01000000)  returns 0x00 (0000ms, 0841ms total)
T1A70 001:287 JLINK_WriteReg(MSP, 0x20001000)  returns 0x00 (0000ms, 0841ms total)
T1A70 001:287 JLINK_WriteReg(PSP, 0x20001000)  returns 0x00 (0000ms, 0841ms total)
T1A70 001:287 JLINK_WriteReg(CFBP, 0x00000000)  returns 0x00 (0000ms, 0841ms total)
T1A70 001:287 JLINK_SetBPEx(Addr = 0x20000000, Type = 0xFFFFFFF2)  returns 0x0000000D (0000ms, 0841ms total)
T1A70 001:287 JLINK_Go() (0001ms, 0842ms total)
T1A70 001:288 JLINK_IsHalted()  returns FALSE (0001ms, 0843ms total)
T1A70 001:293 JLINK_IsHalted()  returns FALSE (0000ms, 0842ms total)
T1A70 001:295 JLINK_IsHalted()  returns FALSE (0000ms, 0842ms total)
T1A70 001:297 JLINK_IsHalted()  returns FALSE (0000ms, 0842ms total)
T1A70 001:299 JLINK_IsHalted()  returns FALSE (0000ms, 0842ms total)
T1A70 001:301 JLINK_IsHalted()  returns FALSE (0000ms, 0842ms total)
T1A70 001:303 JLINK_IsHalted()  returns FALSE (0000ms, 0842ms total)
T1A70 001:305 JLINK_IsHalted()  returns FALSE (0000ms, 0842ms total)
T1A70 001:307 JLINK_IsHalted()  returns FALSE (0000ms, 0842ms total)
T1A70 001:309 JLINK_IsHalted()  returns FALSE (0000ms, 0842ms total)
T1A70 001:311 JLINK_IsHalted()  returns FALSE (0000ms, 0842ms total)
T1A70 001:313 JLINK_IsHalted()  returns FALSE (0000ms, 0842ms total)
T1A70 001:315 JLINK_IsHalted()  returns FALSE (0000ms, 0842ms total)
T1A70 001:317 JLINK_IsHalted()  returns FALSE (0000ms, 0842ms total)
T1A70 001:319 JLINK_IsHalted()  returns FALSE (0000ms, 0842ms total)
T1A70 001:321 JLINK_IsHalted()  returns FALSE (0000ms, 0842ms total)
T1A70 001:323 JLINK_IsHalted()  returns FALSE (0000ms, 0842ms total)
T1A70 001:325 JLINK_IsHalted()  returns FALSE (0000ms, 0842ms total)
T1A70 001:327 JLINK_IsHalted()  returns FALSE (0000ms, 0842ms total)
T1A70 001:329 JLINK_IsHalted()  returns FALSE (0000ms, 0842ms total)
T1A70 001:331 JLINK_IsHalted()  returns FALSE (0000ms, 0842ms total)
T1A70 001:333 JLINK_IsHalted()  returns FALSE (0000ms, 0842ms total)
T1A70 001:335 JLINK_IsHalted()  returns FALSE (0000ms, 0842ms total)
T1A70 001:337 JLINK_IsHalted()  returns FALSE (0000ms, 0842ms total)
T1A70 001:339 JLINK_IsHalted()  returns FALSE (0000ms, 0842ms total)
T1A70 001:341 JLINK_IsHalted()  returns FALSE (0000ms, 0842ms total)
T1A70 001:343 JLINK_IsHalted()  returns FALSE (0000ms, 0842ms total)
T1A70 001:345 JLINK_IsHalted()  returns FALSE (0000ms, 0842ms total)
T1A70 001:347 JLINK_IsHalted()  returns FALSE (0000ms, 0842ms total)
T1A70 001:349 JLINK_IsHalted()  returns FALSE (0000ms, 0842ms total)
T1A70 001:351 JLINK_IsHalted()  returns FALSE (0000ms, 0842ms total)
T1A70 001:353 JLINK_IsHalted()  returns FALSE (0000ms, 0842ms total)
T1A70 001:355 JLINK_IsHalted()  returns FALSE (0000ms, 0842ms total)
T1A70 001:360 JLINK_IsHalted()  returns FALSE (0000ms, 0842ms total)
T1A70 001:362 JLINK_IsHalted()  returns FALSE (0000ms, 0842ms total)
T1A70 001:364 JLINK_IsHalted()  returns FALSE (0000ms, 0842ms total)
T1A70 001:366 JLINK_IsHalted()  returns FALSE (0000ms, 0842ms total)
T1A70 001:368 JLINK_IsHalted()  returns FALSE (0000ms, 0842ms total)
T1A70 001:370 JLINK_IsHalted()  returns FALSE (0000ms, 0842ms total)
T1A70 001:372 JLINK_IsHalted()  returns FALSE (0000ms, 0842ms total)
T1A70 001:374 JLINK_IsHalted()  returns FALSE (0000ms, 0842ms total)
T1A70 001:376 JLINK_IsHalted()  returns FALSE (0000ms, 0842ms total)
T1A70 001:378 JLINK_IsHalted()  returns FALSE (0000ms, 0842ms total)
T1A70 001:380 JLINK_IsHalted()  returns FALSE (0000ms, 0842ms total)
T1A70 001:382 JLINK_IsHalted()  returns FALSE (0000ms, 0842ms total)
T1A70 001:384 JLINK_IsHalted()  returns FALSE (0000ms, 0842ms total)
T1A70 001:386 JLINK_IsHalted()  returns FALSE (0000ms, 0842ms total)
T1A70 001:388 JLINK_IsHalted()  returns FALSE (0000ms, 0842ms total)
T1A70 001:390 JLINK_IsHalted()  returns FALSE (0000ms, 0842ms total)
T1A70 001:392 JLINK_IsHalted()  returns FALSE (0000ms, 0842ms total)
T1A70 001:394 JLINK_IsHalted()  returns FALSE (0000ms, 0842ms total)
T1A70 001:396 JLINK_IsHalted()  returns FALSE (0000ms, 0842ms total)
T1A70 001:398 JLINK_IsHalted()  returns FALSE (0000ms, 0842ms total)
T1A70 001:400 JLINK_IsHalted()  returns FALSE (0000ms, 0842ms total)
T1A70 001:402 JLINK_IsHalted()  returns FALSE (0000ms, 0842ms total)
T1A70 001:404 JLINK_IsHalted()  returns FALSE (0000ms, 0842ms total)
T1A70 001:406 JLINK_IsHalted()  returns FALSE (0000ms, 0842ms total)
T1A70 001:408 JLINK_IsHalted()  returns FALSE (0000ms, 0842ms total)
T1A70 001:410 JLINK_IsHalted()  returns FALSE (0000ms, 0842ms total)
T1A70 001:412 JLINK_IsHalted()  returns FALSE (0000ms, 0842ms total)
T1A70 001:414 JLINK_IsHalted()  returns FALSE (0000ms, 0842ms total)
T1A70 001:416 JLINK_IsHalted()  returns FALSE (0000ms, 0842ms total)
T1A70 001:418 JLINK_IsHalted()  returns FALSE (0000ms, 0842ms total)
T1A70 001:420 JLINK_IsHalted()  returns FALSE (0000ms, 0842ms total)
T1A70 001:422 JLINK_IsHalted()  returns FALSE (0000ms, 0842ms total)
T1A70 001:424 JLINK_IsHalted()  returns FALSE (0000ms, 0842ms total)
T1A70 001:426 JLINK_IsHalted() -- CPU_ReadMem(2 bytes @ 0x20000000)  returns TRUE (0002ms, 0844ms total)
T1A70 001:428 JLINK_ReadReg(R15 (PC))  returns 0x20000000 (0000ms, 0842ms total)
T1A70 001:428 JLINK_ClrBPEx(BPHandle = 0x0000000D)  returns 0x00 (0000ms, 0842ms total)
